T5FDC 000:007.082   SEGGER J-Link V7.94i Log File
T5FDC 000:007.288   DLL Compiled: Feb  7 2024 17:04:01
T5FDC 000:007.298   Logging started @ 2024-12-02 12:47
T5FDC 000:007.307   Process: C:\Keil_v5\UV4\UV4.exe
T5FDC 000:007.320 - 7.316ms
T5FDC 000:007.346 JLINK_SetWarnOutHandler(...)
T5FDC 000:007.354 - 0.010ms
T5FDC 000:007.365 JLINK_OpenEx(...)
T5FDC 000:010.475   Firmware: J-Link EDU Mini V1 compiled Apr 15 2024 17:39:18
T5FDC 000:012.511   Firmware: J-Link EDU Mini V1 compiled Apr 15 2024 17:39:18
T5FDC 000:044.246   Hardware: V1.00
T5FDC 000:044.333   S/N: 801049052
T5FDC 000:044.353   OEM: SEGGER
T5FDC 000:044.373   Feature(s): FlashBP, GDB
T5FDC 000:046.763   Bootloader: 2016 Nov 30
T5FDC 000:047.492   USB speed mode: Full speed (12 MBit/s)
T5FDC 000:048.263   TELNET listener socket opened on port 19021
T5FDC 000:048.736   WEBSRV WEBSRV_Init(): Starting webserver thread(s)
T5FDC 000:049.253   WEBSRV Webserver running on local port 19080
T5FDC 000:049.702   Looking for J-Link GUI Server exe at: C:\Keil_v5\ARM\Segger\JLinkGUIServer.exe
T5FDC 000:050.124   Looking for J-Link GUI Server exe at: C:\Program Files\SEGGER\JLink_V794i\JLinkGUIServer.exe
T5FDC 000:050.383   Forking J-Link GUI Server: C:\Program Files\SEGGER\JLink_V794i\JLinkGUIServer.exe
T5FDC 000:108.029   J-Link GUI Server info: "J-Link GUI server V7.94i "
T5FDC 000:115.971 - 108.586ms returns "O.K."
T5FDC 000:116.036 JLINK_GetEmuCaps()
T5FDC 000:116.053 - 0.013ms returns 0xB8EA5A33
T5FDC 000:116.068 JLINK_TIF_GetAvailable(...)
T5FDC 000:116.320 - 0.250ms
T5FDC 000:116.371 JLINK_SetErrorOutHandler(...)
T5FDC 000:116.380 - 0.008ms
T5FDC 000:116.435 JLINK_ExecCommand("ProjectFile = "C:\GithubNordic-nRF52832-Homework\Template\JLinkSettings.ini"", ...). 
T5FDC 000:140.818   Ref file found at: C:\Keil_v5\ARM\Segger\JLinkDevices.ref
T5FDC 000:141.004   REF file references invalid XML file: C:\Program Files\SEGGER\JLink_V794i\JLinkDevices.xml
T5FDC 000:142.362 - 25.928ms returns 0x00
T5FDC 000:147.400 JLINK_ExecCommand("Device = nRF52832_xxAA", ...). 
T5FDC 000:152.595   Device "NRF52832_XXAA" selected.
T5FDC 000:153.196 - 5.762ms returns 0x00
T5FDC 000:153.215 JLINK_ExecCommand("DisableConnectionTimeout", ...). 
T5FDC 000:153.226 - 0.001ms returns 0x01
T5FDC 000:153.235 JLINK_GetHardwareVersion()
T5FDC 000:153.249 - 0.007ms returns 10000
T5FDC 000:153.257 JLINK_GetDLLVersion()
T5FDC 000:153.264 - 0.006ms returns 79409
T5FDC 000:153.272 JLINK_GetOEMString(...)
T5FDC 000:153.291 JLINK_GetFirmwareString(...)
T5FDC 000:153.299 - 0.007ms
T5FDC 000:162.716 JLINK_GetDLLVersion()
T5FDC 000:162.758 - 0.041ms returns 79409
T5FDC 000:162.767 JLINK_GetCompileDateTime()
T5FDC 000:162.774 - 0.006ms
T5FDC 000:164.616 JLINK_GetFirmwareString(...)
T5FDC 000:164.640 - 0.023ms
T5FDC 000:168.879 JLINK_GetHardwareVersion()
T5FDC 000:168.924 - 0.045ms returns 10000
T5FDC 000:171.232 JLINK_GetSN()
T5FDC 000:171.260 - 0.028ms returns 801049052
T5FDC 000:173.678 JLINK_GetOEMString(...)
T5FDC 000:180.108 JLINK_TIF_Select(JLINKARM_TIF_SWD)
T5FDC 000:181.479 - 1.371ms returns 0x00
T5FDC 000:181.509 JLINK_HasError()
T5FDC 000:181.542 JLINK_SetSpeed(5000)
T5FDC 000:181.814 - 0.273ms
T5FDC 000:181.840 JLINK_GetId()
T5FDC 000:185.653   InitTarget() start
T5FDC 000:185.695    J-Link Script File: Executing InitTarget()
T5FDC 000:200.852   InitTarget() end - Took 3.74ms
T5FDC 000:207.027   Found SW-DP with ID 0x2BA01477
T5FDC 000:215.659   DPIDR: 0x2BA01477
T5FDC 000:222.879   CoreSight SoC-400 or earlier
T5FDC 000:228.263   Scanning AP map to find all available APs
T5FDC 000:234.788   AP[2]: Stopped AP scan as end of AP map has been reached
T5FDC 000:241.071   AP[0]: AHB-AP (IDR: 0x24770011)
T5FDC 000:245.809   AP[1]: JTAG-AP (IDR: 0x02880000)
T5FDC 000:251.216   Iterating through AP map to find AHB-AP to use
T5FDC 000:257.997   AP[0]: Core found
T5FDC 000:263.424   AP[0]: AHB-AP ROM base: 0xE00FF000
T5FDC 000:273.376   CPUID register: 0x410FC241. Implementer code: 0x41 (ARM)
T5FDC 000:279.341   Found Cortex-M4 r0p1, Little endian.
T5FDC 000:280.309   -- Max. mem block: 0x00002B08
T5FDC 000:281.289   CPU_ReadMem(4 bytes @ 0xE000EDF0)
T5FDC 000:281.960   CPU_WriteMem(4 bytes @ 0xE000EDF0)
T5FDC 000:282.541   CPU_ReadMem(4 bytes @ 0xE0002000)
T5FDC 000:290.540   FPUnit: 6 code (BP) slots and 2 literal slots
T5FDC 000:290.594   CPU_ReadMem(4 bytes @ 0xE000EDFC)
T5FDC 000:291.203   CPU_WriteMem(4 bytes @ 0xE000EDFC)
T5FDC 000:291.922   CPU_ReadMem(4 bytes @ 0xE0001000)
T5FDC 000:292.575   CPU_WriteMem(4 bytes @ 0xE0001000)
T5FDC 000:293.296   CPU_ReadMem(4 bytes @ 0xE000ED88)
T5FDC 000:293.823   CPU_WriteMem(4 bytes @ 0xE000ED88)
T5FDC 000:294.570   CPU_ReadMem(4 bytes @ 0xE000ED88)
T5FDC 000:295.332   CPU_WriteMem(4 bytes @ 0xE000ED88)
T5FDC 000:303.025   CoreSight components:
T5FDC 000:309.668   ROMTbl[0] @ E00FF000
T5FDC 000:309.726   CPU_ReadMem(64 bytes @ 0xE00FF000)
T5FDC 000:310.883   CPU_ReadMem(32 bytes @ 0xE000EFE0)
T5FDC 000:318.974   [0][0]: E000E000 CID B105E00D PID 000BB00C SCS-M7
T5FDC 000:319.038   CPU_ReadMem(32 bytes @ 0xE0001FE0)
T5FDC 000:325.384   [0][1]: E0001000 CID B105E00D PID 003BB002 DWT
T5FDC 000:325.426   CPU_ReadMem(32 bytes @ 0xE0002FE0)
T5FDC 000:332.281   [0][2]: E0002000 CID B105E00D PID 002BB003 FPB
T5FDC 000:332.331   CPU_ReadMem(32 bytes @ 0xE0000FE0)
T5FDC 000:341.704   [0][3]: E0000000 CID B105E00D PID 003BB001 ITM
T5FDC 000:341.758   CPU_ReadMem(32 bytes @ 0xE0040FE0)
T5FDC 000:348.156   [0][4]: E0040000 CID B105900D PID 000BB9A1 TPIU
T5FDC 000:348.202   CPU_ReadMem(32 bytes @ 0xE0041FE0)
T5FDC 000:356.220   [0][5]: E0041000 CID B105900D PID 000BB925 ETM
T5FDC 000:356.736 - 174.894ms returns 0x2BA01477
T5FDC 000:356.786 JLINK_GetDLLVersion()
T5FDC 000:356.795 - 0.008ms returns 79409
T5FDC 000:356.804 JLINK_CORE_GetFound()
T5FDC 000:356.812 - 0.008ms returns 0xE0000FF
T5FDC 000:356.861 JLINK_GetDebugInfo(0x100 = JLINKARM_ROM_TABLE_ADDR_INDEX)
T5FDC 000:356.870   Value=0xE00FF000
T5FDC 000:356.882 - 0.021ms returns 0
T5FDC 000:363.389 JLINK_GetDebugInfo(0x100 = JLINKARM_ROM_TABLE_ADDR_INDEX)
T5FDC 000:363.430   Value=0xE00FF000
T5FDC 000:363.442 - 0.053ms returns 0
T5FDC 000:363.451 JLINK_GetDebugInfo(0x101 = JLINKARM_DEBUG_INFO_ETM_ADDR_INDEX)
T5FDC 000:363.459   Value=0xE0041000
T5FDC 000:363.469 - 0.018ms returns 0
T5FDC 000:363.479 JLINK_ReadMemEx(0xE0041FD0, 0x20 Bytes, Flags = 0x02000004)
T5FDC 000:363.551   CPU_ReadMem(32 bytes @ 0xE0041FD0)
T5FDC 000:364.520   Data:  04 00 00 00 00 00 00 00 00 00 00 00 00 00 00 00 ...
T5FDC 000:364.547 - 1.067ms returns 32 (0x20)
T5FDC 000:364.558 JLINK_GetDebugInfo(0x102 = JLINKARM_DEBUG_INFO_MTB_ADDR_INDEX)
T5FDC 000:364.565   Value=0x00000000
T5FDC 000:364.575 - 0.017ms returns 0
T5FDC 000:364.583 JLINK_GetDebugInfo(0x103 = JLINKARM_DEBUG_INFO_TPIU_ADDR_INDEX)
T5FDC 000:364.590   Value=0xE0040000
T5FDC 000:364.600 - 0.016ms returns 0
T5FDC 000:364.607 JLINK_GetDebugInfo(0x104 = JLINKARM_DEBUG_INFO_ITM_ADDR_INDEX)
T5FDC 000:364.615   Value=0xE0000000
T5FDC 000:364.624 - 0.017ms returns 0
T5FDC 000:364.632 JLINK_GetDebugInfo(0x105 = JLINKARM_DEBUG_INFO_DWT_ADDR_INDEX)
T5FDC 000:364.639   Value=0xE0001000
T5FDC 000:364.649 - 0.016ms returns 0
T5FDC 000:364.656 JLINK_GetDebugInfo(0x106 = JLINKARM_DEBUG_INFO_FPB_ADDR_INDEX)
T5FDC 000:364.663   Value=0xE0002000
T5FDC 000:364.673 - 0.016ms returns 0
T5FDC 000:364.681 JLINK_GetDebugInfo(0x107 = JLINKARM_DEBUG_INFO_NVIC_ADDR_INDEX)
T5FDC 000:364.688   Value=0xE000E000
T5FDC 000:364.697 - 0.016ms returns 0
T5FDC 000:364.705 JLINK_GetDebugInfo(0x10C = JLINKARM_DEBUG_INFO_DBG_ADDR_INDEX)
T5FDC 000:364.712   Value=0xE000EDF0
T5FDC 000:364.722 - 0.017ms returns 0
T5FDC 000:364.735 JLINK_GetDebugInfo(0x01 = Unknown)
T5FDC 000:364.743   Value=0x00000001
T5FDC 000:364.753 - 0.022ms returns 0
T5FDC 000:364.761 JLINK_ReadMemU32(0xE000ED00, 0x1 Items)
T5FDC 000:364.775   CPU_ReadMem(4 bytes @ 0xE000ED00)
T5FDC 000:365.317   Data:  41 C2 0F 41
T5FDC 000:365.344   Debug reg: CPUID
T5FDC 000:365.356 - 0.594ms returns 1 (0x1)
T5FDC 000:365.367 JLINK_GetDebugInfo(0x10F = JLINKARM_DEBUG_INFO_HAS_CORTEX_M_SECURITY_EXT_INDEX)
T5FDC 000:365.378   Value=0x00000000
T5FDC 000:365.391 - 0.024ms returns 0
T5FDC 000:365.400 JLINK_HasError()
T5FDC 000:365.409 JLINK_SetResetType(JLINKARM_CM3_RESET_TYPE_NORMAL)
T5FDC 000:365.416 - 0.007ms returns JLINKARM_CM3_RESET_TYPE_NORMAL
T5FDC 000:365.424 JLINK_Reset()
T5FDC 000:365.461   CPU is running
T5FDC 000:365.473   CPU_WriteMem(4 bytes @ 0xE000EDF0)
T5FDC 000:365.999   CPU is running
T5FDC 000:366.029   CPU_WriteMem(4 bytes @ 0xE000EDFC)
T5FDC 000:372.667   Reset: Halt core after reset via DEMCR.VC_CORERESET.
T5FDC 000:378.926   Reset: Reset device via AIRCR.SYSRESETREQ.
T5FDC 000:378.968   CPU is running
T5FDC 000:378.983   CPU_WriteMem(4 bytes @ 0xE000ED0C)
T5FDC 000:433.608   CPU_ReadMem(4 bytes @ 0xE000EDF0)
T5FDC 000:434.329   CPU_ReadMem(4 bytes @ 0xE000EDF0)
T5FDC 000:438.885   CPU_WriteMem(4 bytes @ 0xE000EDFC)
T5FDC 000:445.500   CPU_ReadMem(4 bytes @ 0xE000EDF0)
T5FDC 000:450.256   CPU_WriteMem(4 bytes @ 0xE0002000)
T5FDC 000:451.096   CPU_ReadMem(4 bytes @ 0xE000EDFC)
T5FDC 000:451.965   CPU_ReadMem(4 bytes @ 0xE0001000)
T5FDC 000:452.721 - 87.294ms
T5FDC 000:452.837 JLINK_Halt()
T5FDC 000:452.857 - 0.019ms returns 0x00
T5FDC 000:452.878 JLINK_ReadMemU32(0xE000EDF0, 0x1 Items)
T5FDC 000:452.914   CPU_ReadMem(4 bytes @ 0xE000EDF0)
T5FDC 000:453.672   Data:  03 00 03 00
T5FDC 000:453.741   Debug reg: DHCSR
T5FDC 000:453.766 - 0.888ms returns 1 (0x1)
T5FDC 000:453.805 JLINK_WriteU32_64(0xE000EDF0, 0xA05F0003)
T5FDC 000:453.821   Debug reg: DHCSR
T5FDC 000:454.456   CPU_WriteMem(4 bytes @ 0xE000EDF0)
T5FDC 000:455.175 - 1.368ms returns 0 (0x00000000)
T5FDC 000:455.251 JLINK_WriteU32_64(0xE000EDFC, 0x01000000)
T5FDC 000:455.268   Debug reg: DEMCR
T5FDC 000:455.308   CPU_WriteMem(4 bytes @ 0xE000EDFC)
T5FDC 000:455.868 - 0.615ms returns 0 (0x00000000)
T5FDC 000:511.219 JLINK_GetHWStatus(...)
T5FDC 000:511.830 - 0.610ms returns 0
T5FDC 000:537.455 JLINK_GetNumBPUnits(Type = 0xFFFFFF00)
T5FDC 000:537.510 - 0.055ms returns 0x06
T5FDC 000:537.521 JLINK_GetNumBPUnits(Type = 0xF0)
T5FDC 000:537.530 - 0.009ms returns 0x2000
T5FDC 000:537.540 JLINK_GetNumWPUnits()
T5FDC 000:537.549 - 0.009ms returns 4
T5FDC 000:562.044 JLINK_GetSpeed()
T5FDC 000:562.102 - 0.057ms returns 4000
T5FDC 000:579.242 JLINK_ReadMemU32(0xE000E004, 0x1 Items)
T5FDC 000:579.328   CPU_ReadMem(4 bytes @ 0xE000E004)
T5FDC 000:580.000   Data:  01 00 00 00
T5FDC 000:580.071 - 0.829ms returns 1 (0x1)
T5FDC 000:580.091 JLINK_ReadMemU32(0xE000E004, 0x1 Items)
T5FDC 000:580.118   CPU_ReadMem(4 bytes @ 0xE000E004)
T5FDC 000:580.694   Data:  01 00 00 00
T5FDC 000:580.738 - 0.647ms returns 1 (0x1)
T5FDC 000:580.756 JLINK_WriteMemEx(0xE0001000, 0x0000001C Bytes, Flags = 0x02000004)
T5FDC 000:580.768   Data:  01 00 00 00 00 00 00 00 00 00 00 00 00 00 00 00 ...
T5FDC 000:580.800   CPU_WriteMem(28 bytes @ 0xE0001000)
T5FDC 000:581.667 - 0.910ms returns 0x1C
T5FDC 000:581.724 JLINK_Halt()
T5FDC 000:581.740 - 0.015ms returns 0x00
T5FDC 000:581.757 JLINK_IsHalted()
T5FDC 000:581.772 - 0.015ms returns TRUE
T5FDC 000:600.778 JLINK_WriteMem(0x20000000, 0x5B8 Bytes, ...)
T5FDC 000:600.813   Data:  00 BE 0A E0 0D 78 2D 06 68 40 08 24 40 00 00 D3 ...
T5FDC 000:601.286   CPU_WriteMem(1464 bytes @ 0x20000000)
T5FDC 000:609.903 - 9.124ms returns 0x5B8
T5FDC 000:610.173 JLINK_HasError()
T5FDC 000:610.205 JLINK_WriteReg(R0, 0x00000000)
T5FDC 000:610.241 - 0.036ms returns 0
T5FDC 000:610.266 JLINK_WriteReg(R1, 0x00B71B00)
T5FDC 000:610.289 - 0.022ms returns 0
T5FDC 000:610.313 JLINK_WriteReg(R2, 0x00000001)
T5FDC 000:610.335 - 0.022ms returns 0
T5FDC 000:610.359 JLINK_WriteReg(R3, 0x00000000)
T5FDC 000:610.381 - 0.022ms returns 0
T5FDC 000:610.405 JLINK_WriteReg(R4, 0x00000000)
T5FDC 000:610.427 - 0.021ms returns 0
T5FDC 000:610.451 JLINK_WriteReg(R5, 0x00000000)
T5FDC 000:610.473 - 0.021ms returns 0
T5FDC 000:610.496 JLINK_WriteReg(R6, 0x00000000)
T5FDC 000:610.518 - 0.022ms returns 0
T5FDC 000:610.542 JLINK_WriteReg(R7, 0x00000000)
T5FDC 000:610.580 - 0.038ms returns 0
T5FDC 000:610.613 JLINK_WriteReg(R8, 0x00000000)
T5FDC 000:610.636 - 0.022ms returns 0
T5FDC 000:610.660 JLINK_WriteReg(R9, 0x200005B4)
T5FDC 000:610.682 - 0.022ms returns 0
T5FDC 000:610.705 JLINK_WriteReg(R10, 0x00000000)
T5FDC 000:610.728 - 0.023ms returns 0
T5FDC 000:610.752 JLINK_WriteReg(R11, 0x00000000)
T5FDC 000:610.775 - 0.022ms returns 0
T5FDC 000:610.799 JLINK_WriteReg(R12, 0x00000000)
T5FDC 000:610.821 - 0.022ms returns 0
T5FDC 000:610.844 JLINK_WriteReg(R13 (SP), 0x20004000)
T5FDC 000:610.866 - 0.023ms returns 0
T5FDC 000:610.888 JLINK_WriteReg(R14, 0x20000001)
T5FDC 000:610.909 - 0.020ms returns 0
T5FDC 000:610.931 JLINK_WriteReg(R15 (PC), 0x20000020)
T5FDC 000:610.951 - 0.021ms returns 0
T5FDC 000:610.973 JLINK_WriteReg(XPSR, 0x01000000)
T5FDC 000:610.993 - 0.020ms returns 0
T5FDC 000:611.015 JLINK_WriteReg(MSP, 0x20004000)
T5FDC 000:611.036 - 0.020ms returns 0
T5FDC 000:611.057 JLINK_WriteReg(PSP, 0x20004000)
T5FDC 000:611.077 - 0.020ms returns 0
T5FDC 000:611.100 JLINK_WriteReg(CFBP, 0x00000000)
T5FDC 000:611.119 - 0.020ms returns 0
T5FDC 000:611.143 JLINK_SetBPEx(Addr = 0x20000000, Type = 0xFFFFFFF2)
T5FDC 000:611.181   CPU_ReadMem(2 bytes @ 0x20000000)
T5FDC 000:611.878 - 0.733ms returns 0x00000001
T5FDC 000:611.952 JLINK_Go()
T5FDC 000:611.983   CPU_WriteMem(2 bytes @ 0x20000000)
T5FDC 000:612.798   CPU_ReadMem(4 bytes @ 0xE0001000)
T5FDC 000:613.499   CPU_WriteMem(4 bytes @ 0xE0002008)
T5FDC 000:613.594   CPU_WriteMem(4 bytes @ 0xE000200C)
T5FDC 000:613.620   CPU_WriteMem(4 bytes @ 0xE0002010)
T5FDC 000:613.645   CPU_WriteMem(4 bytes @ 0xE0002014)
T5FDC 000:613.669   CPU_WriteMem(4 bytes @ 0xE0002018)
T5FDC 000:613.694   CPU_WriteMem(4 bytes @ 0xE000201C)
T5FDC 000:615.462   CPU_WriteMem(4 bytes @ 0xE0001004)
T5FDC 000:638.592   Memory map 'after startup completion point' is active
T5FDC 000:638.695 - 26.743ms
T5FDC 000:638.737 JLINK_IsHalted()
T5FDC 000:642.699   CPU_ReadMem(2 bytes @ 0x20000000)
T5FDC 000:643.841 - 5.100ms returns TRUE
T5FDC 000:643.962 JLINK_ReadReg(R15 (PC))
T5FDC 000:644.026 - 0.063ms returns 0x20000000
T5FDC 000:644.057 JLINK_ClrBPEx(BPHandle = 0x00000001)
T5FDC 000:644.087 - 0.030ms returns 0x00
T5FDC 000:644.119 JLINK_ReadReg(R0)
T5FDC 000:644.149 - 0.029ms returns 0x00000000
T5FDC 000:645.701 JLINK_HasError()
T5FDC 000:645.778 JLINK_WriteReg(R0, 0x00000000)
T5FDC 000:645.805 - 0.026ms returns 0
T5FDC 000:645.825 JLINK_WriteReg(R1, 0x00001000)
T5FDC 000:645.842 - 0.018ms returns 0
T5FDC 000:645.861 JLINK_WriteReg(R2, 0x000000FF)
T5FDC 000:645.878 - 0.017ms returns 0
T5FDC 000:645.896 JLINK_WriteReg(R3, 0x00000000)
T5FDC 000:645.914 - 0.017ms returns 0
T5FDC 000:645.932 JLINK_WriteReg(R4, 0x00000000)
T5FDC 000:645.949 - 0.017ms returns 0
T5FDC 000:645.968 JLINK_WriteReg(R5, 0x00000000)
T5FDC 000:645.985 - 0.017ms returns 0
T5FDC 000:646.003 JLINK_WriteReg(R6, 0x00000000)
T5FDC 000:646.020 - 0.016ms returns 0
T5FDC 000:646.038 JLINK_WriteReg(R7, 0x00000000)
T5FDC 000:646.055 - 0.016ms returns 0
T5FDC 000:646.074 JLINK_WriteReg(R8, 0x00000000)
T5FDC 000:646.090 - 0.016ms returns 0
T5FDC 000:646.109 JLINK_WriteReg(R9, 0x200005B4)
T5FDC 000:646.126 - 0.017ms returns 0
T5FDC 000:646.145 JLINK_WriteReg(R10, 0x00000000)
T5FDC 000:646.163 - 0.018ms returns 0
T5FDC 000:646.181 JLINK_WriteReg(R11, 0x00000000)
T5FDC 000:646.198 - 0.017ms returns 0
T5FDC 000:646.216 JLINK_WriteReg(R12, 0x00000000)
T5FDC 000:646.233 - 0.016ms returns 0
T5FDC 000:646.252 JLINK_WriteReg(R13 (SP), 0x20004000)
T5FDC 000:646.270 - 0.018ms returns 0
T5FDC 000:646.288 JLINK_WriteReg(R14, 0x20000001)
T5FDC 000:646.305 - 0.016ms returns 0
T5FDC 000:646.323 JLINK_WriteReg(R15 (PC), 0x20000288)
T5FDC 000:646.340 - 0.017ms returns 0
T5FDC 000:646.359 JLINK_WriteReg(XPSR, 0x01000000)
T5FDC 000:646.376 - 0.017ms returns 0
T5FDC 000:646.394 JLINK_WriteReg(MSP, 0x20004000)
T5FDC 000:646.411 - 0.017ms returns 0
T5FDC 000:646.430 JLINK_WriteReg(PSP, 0x20004000)
T5FDC 000:646.447 - 0.017ms returns 0
T5FDC 000:646.567 JLINK_WriteReg(CFBP, 0x00000000)
T5FDC 000:646.593 - 0.025ms returns 0
T5FDC 000:646.612 JLINK_SetBPEx(Addr = 0x20000000, Type = 0xFFFFFFF2)
T5FDC 000:646.632 - 0.020ms returns 0x00000002
T5FDC 000:646.651 JLINK_Go()
T5FDC 000:646.691   CPU_ReadMem(4 bytes @ 0xE0001000)
T5FDC 000:650.713 - 4.059ms
T5FDC 000:650.788 JLINK_IsHalted()
T5FDC 000:654.159   CPU_ReadMem(2 bytes @ 0x20000000)
T5FDC 000:655.017 - 4.226ms returns TRUE
T5FDC 000:655.103 JLINK_ReadReg(R15 (PC))
T5FDC 000:655.137 - 0.033ms returns 0x20000000
T5FDC 000:655.160 JLINK_ClrBPEx(BPHandle = 0x00000002)
T5FDC 000:655.183 - 0.022ms returns 0x00
T5FDC 000:655.205 JLINK_ReadReg(R0)
T5FDC 000:655.225 - 0.020ms returns 0x00000001
T5FDC 000:655.249 JLINK_HasError()
T5FDC 000:655.273 JLINK_WriteReg(R0, 0x00000000)
T5FDC 000:655.296 - 0.022ms returns 0
T5FDC 000:655.318 JLINK_WriteReg(R1, 0x00001000)
T5FDC 000:655.338 - 0.020ms returns 0
T5FDC 000:655.360 JLINK_WriteReg(R2, 0x000000FF)
T5FDC 000:655.380 - 0.019ms returns 0
T5FDC 000:655.401 JLINK_WriteReg(R3, 0x00000000)
T5FDC 000:655.421 - 0.019ms returns 0
T5FDC 000:655.442 JLINK_WriteReg(R4, 0x00000000)
T5FDC 000:655.462 - 0.019ms returns 0
T5FDC 000:655.483 JLINK_WriteReg(R5, 0x00000000)
T5FDC 000:655.503 - 0.019ms returns 0
T5FDC 000:655.525 JLINK_WriteReg(R6, 0x00000000)
T5FDC 000:655.545 - 0.020ms returns 0
T5FDC 000:655.567 JLINK_WriteReg(R7, 0x00000000)
T5FDC 000:655.588 - 0.021ms returns 0
T5FDC 000:655.610 JLINK_WriteReg(R8, 0x00000000)
T5FDC 000:655.636 - 0.027ms returns 0
T5FDC 000:655.658 JLINK_WriteReg(R9, 0x200005B4)
T5FDC 000:655.678 - 0.020ms returns 0
T5FDC 000:655.700 JLINK_WriteReg(R10, 0x00000000)
T5FDC 000:655.719 - 0.019ms returns 0
T5FDC 000:655.741 JLINK_WriteReg(R11, 0x00000000)
T5FDC 000:655.763 - 0.021ms returns 0
T5FDC 000:655.786 JLINK_WriteReg(R12, 0x00000000)
T5FDC 000:655.808 - 0.021ms returns 0
T5FDC 000:655.835 JLINK_WriteReg(R13 (SP), 0x20004000)
T5FDC 000:655.857 - 0.023ms returns 0
T5FDC 000:655.881 JLINK_WriteReg(R14, 0x20000001)
T5FDC 000:655.903 - 0.022ms returns 0
T5FDC 000:655.927 JLINK_WriteReg(R15 (PC), 0x200000D4)
T5FDC 000:655.963 - 0.036ms returns 0
T5FDC 000:655.988 JLINK_WriteReg(XPSR, 0x01000000)
T5FDC 000:656.010 - 0.022ms returns 0
T5FDC 000:656.033 JLINK_WriteReg(MSP, 0x20004000)
T5FDC 000:656.055 - 0.022ms returns 0
T5FDC 000:656.079 JLINK_WriteReg(PSP, 0x20004000)
T5FDC 000:656.101 - 0.022ms returns 0
T5FDC 000:656.125 JLINK_WriteReg(CFBP, 0x00000000)
T5FDC 000:656.147 - 0.022ms returns 0
T5FDC 000:656.173 JLINK_SetBPEx(Addr = 0x20000000, Type = 0xFFFFFFF2)
T5FDC 000:656.197 - 0.024ms returns 0x00000003
T5FDC 000:656.222 JLINK_Go()
T5FDC 000:656.266   CPU_ReadMem(4 bytes @ 0xE0001000)
T5FDC 000:660.184 - 3.959ms
T5FDC 000:660.350 JLINK_IsHalted()
T5FDC 000:660.810 - 0.458ms returns FALSE
T5FDC 000:660.869 JLINK_HasError()
T5FDC 000:689.891 JLINK_IsHalted()
T5FDC 000:693.207   CPU_ReadMem(2 bytes @ 0x20000000)
T5FDC 000:693.764 - 3.871ms returns TRUE
T5FDC 000:693.829 JLINK_ReadReg(R15 (PC))
T5FDC 000:693.853 - 0.023ms returns 0x20000000
T5FDC 000:693.870 JLINK_ClrBPEx(BPHandle = 0x00000003)
T5FDC 000:693.886 - 0.016ms returns 0x00
T5FDC 000:693.903 JLINK_ReadReg(R0)
T5FDC 000:693.918 - 0.015ms returns 0x00000000
T5FDC 000:695.661 JLINK_HasError()
T5FDC 000:695.721 JLINK_WriteReg(R0, 0x00001000)
T5FDC 000:695.744 - 0.022ms returns 0
T5FDC 000:695.761 JLINK_WriteReg(R1, 0x00001000)
T5FDC 000:695.777 - 0.015ms returns 0
T5FDC 000:695.793 JLINK_WriteReg(R2, 0x000000FF)
T5FDC 000:695.808 - 0.014ms returns 0
T5FDC 000:695.825 JLINK_WriteReg(R3, 0x00000000)
T5FDC 000:695.840 - 0.014ms returns 0
T5FDC 000:695.856 JLINK_WriteReg(R4, 0x00000000)
T5FDC 000:695.871 - 0.014ms returns 0
T5FDC 000:695.887 JLINK_WriteReg(R5, 0x00000000)
T5FDC 000:695.902 - 0.015ms returns 0
T5FDC 000:695.918 JLINK_WriteReg(R6, 0x00000000)
T5FDC 000:695.933 - 0.014ms returns 0
T5FDC 000:695.949 JLINK_WriteReg(R7, 0x00000000)
T5FDC 000:695.963 - 0.014ms returns 0
T5FDC 000:695.979 JLINK_WriteReg(R8, 0x00000000)
T5FDC 000:696.009 - 0.030ms returns 0
T5FDC 000:696.025 JLINK_WriteReg(R9, 0x200005B4)
T5FDC 000:696.040 - 0.015ms returns 0
T5FDC 000:696.056 JLINK_WriteReg(R10, 0x00000000)
T5FDC 000:696.071 - 0.015ms returns 0
T5FDC 000:696.087 JLINK_WriteReg(R11, 0x00000000)
T5FDC 000:696.102 - 0.015ms returns 0
T5FDC 000:696.118 JLINK_WriteReg(R12, 0x00000000)
T5FDC 000:696.133 - 0.014ms returns 0
T5FDC 000:696.149 JLINK_WriteReg(R13 (SP), 0x20004000)
T5FDC 000:696.165 - 0.016ms returns 0
T5FDC 000:696.181 JLINK_WriteReg(R14, 0x20000001)
T5FDC 000:696.196 - 0.014ms returns 0
T5FDC 000:696.212 JLINK_WriteReg(R15 (PC), 0x20000288)
T5FDC 000:696.227 - 0.015ms returns 0
T5FDC 000:696.334 JLINK_WriteReg(XPSR, 0x01000000)
T5FDC 000:696.352 - 0.018ms returns 0
T5FDC 000:696.368 JLINK_WriteReg(MSP, 0x20004000)
T5FDC 000:696.383 - 0.015ms returns 0
T5FDC 000:696.400 JLINK_WriteReg(PSP, 0x20004000)
T5FDC 000:696.414 - 0.014ms returns 0
T5FDC 000:696.430 JLINK_WriteReg(CFBP, 0x00000000)
T5FDC 000:696.445 - 0.015ms returns 0
T5FDC 000:696.463 JLINK_SetBPEx(Addr = 0x20000000, Type = 0xFFFFFFF2)
T5FDC 000:696.480 - 0.017ms returns 0x00000004
T5FDC 000:696.497 JLINK_Go()
T5FDC 000:696.529   CPU_ReadMem(4 bytes @ 0xE0001000)
T5FDC 000:700.561 - 4.062ms
T5FDC 000:700.634 JLINK_IsHalted()
T5FDC 000:704.418   CPU_ReadMem(2 bytes @ 0x20000000)
T5FDC 000:705.228 - 4.591ms returns TRUE
T5FDC 000:705.320 JLINK_ReadReg(R15 (PC))
T5FDC 000:705.355 - 0.034ms returns 0x20000000
T5FDC 000:705.378 JLINK_ClrBPEx(BPHandle = 0x00000004)
T5FDC 000:705.400 - 0.021ms returns 0x00
T5FDC 000:705.423 JLINK_ReadReg(R0)
T5FDC 000:705.444 - 0.020ms returns 0x00000001
T5FDC 000:705.470 JLINK_HasError()
T5FDC 000:705.503 JLINK_WriteReg(R0, 0x00001000)
T5FDC 000:705.530 - 0.027ms returns 0
T5FDC 000:705.561 JLINK_WriteReg(R1, 0x00001000)
T5FDC 000:705.589 - 0.027ms returns 0
T5FDC 000:705.616 JLINK_WriteReg(R2, 0x000000FF)
T5FDC 000:705.641 - 0.025ms returns 0
T5FDC 000:705.669 JLINK_WriteReg(R3, 0x00000000)
T5FDC 000:705.695 - 0.026ms returns 0
T5FDC 000:705.731 JLINK_WriteReg(R4, 0x00000000)
T5FDC 000:705.754 - 0.022ms returns 0
T5FDC 000:705.783 JLINK_WriteReg(R5, 0x00000000)
T5FDC 000:705.812 - 0.029ms returns 0
T5FDC 000:705.832 JLINK_WriteReg(R6, 0x00000000)
T5FDC 000:705.851 - 0.018ms returns 0
T5FDC 000:705.874 JLINK_WriteReg(R7, 0x00000000)
T5FDC 000:705.899 - 0.024ms returns 0
T5FDC 000:705.927 JLINK_WriteReg(R8, 0x00000000)
T5FDC 000:705.950 - 0.023ms returns 0
T5FDC 000:705.975 JLINK_WriteReg(R9, 0x200005B4)
T5FDC 000:706.000 - 0.024ms returns 0
T5FDC 000:706.027 JLINK_WriteReg(R10, 0x00000000)
T5FDC 000:706.055 - 0.028ms returns 0
T5FDC 000:706.076 JLINK_WriteReg(R11, 0x00000000)
T5FDC 000:706.094 - 0.018ms returns 0
T5FDC 000:706.114 JLINK_WriteReg(R12, 0x00000000)
T5FDC 000:706.133 - 0.018ms returns 0
T5FDC 000:706.154 JLINK_WriteReg(R13 (SP), 0x20004000)
T5FDC 000:706.173 - 0.019ms returns 0
T5FDC 000:706.194 JLINK_WriteReg(R14, 0x20000001)
T5FDC 000:706.218 - 0.024ms returns 0
T5FDC 000:706.243 JLINK_WriteReg(R15 (PC), 0x200000D4)
T5FDC 000:706.272 - 0.028ms returns 0
T5FDC 000:706.299 JLINK_WriteReg(XPSR, 0x01000000)
T5FDC 000:706.323 - 0.025ms returns 0
T5FDC 000:706.349 JLINK_WriteReg(MSP, 0x20004000)
T5FDC 000:706.372 - 0.023ms returns 0
T5FDC 000:706.400 JLINK_WriteReg(PSP, 0x20004000)
T5FDC 000:706.424 - 0.024ms returns 0
T5FDC 000:706.451 JLINK_WriteReg(CFBP, 0x00000000)
T5FDC 000:706.471 - 0.019ms returns 0
T5FDC 000:706.492 JLINK_SetBPEx(Addr = 0x20000000, Type = 0xFFFFFFF2)
T5FDC 000:706.513 - 0.021ms returns 0x00000005
T5FDC 000:706.534 JLINK_Go()
T5FDC 000:706.572   CPU_ReadMem(4 bytes @ 0xE0001000)
T5FDC 000:711.085 - 4.549ms
T5FDC 000:711.170 JLINK_IsHalted()
T5FDC 000:711.974 - 0.801ms returns FALSE
T5FDC 000:712.070 JLINK_HasError()
T5FDC 000:716.632 JLINK_IsHalted()
T5FDC 000:720.088   CPU_ReadMem(2 bytes @ 0x20000000)
T5FDC 000:720.761 - 4.127ms returns TRUE
T5FDC 000:720.839 JLINK_ReadReg(R15 (PC))
T5FDC 000:720.879 - 0.039ms returns 0x20000000
T5FDC 000:720.916 JLINK_ClrBPEx(BPHandle = 0x00000005)
T5FDC 000:720.947 - 0.030ms returns 0x00
T5FDC 000:720.968 JLINK_ReadReg(R0)
T5FDC 000:720.987 - 0.018ms returns 0x00000000
T5FDC 000:723.254 JLINK_HasError()
T5FDC 000:723.322 JLINK_WriteReg(R0, 0x00002000)
T5FDC 000:723.347 - 0.025ms returns 0
T5FDC 000:723.365 JLINK_WriteReg(R1, 0x00001000)
T5FDC 000:723.382 - 0.017ms returns 0
T5FDC 000:723.401 JLINK_WriteReg(R2, 0x000000FF)
T5FDC 000:723.418 - 0.017ms returns 0
T5FDC 000:723.435 JLINK_WriteReg(R3, 0x00000000)
T5FDC 000:723.451 - 0.016ms returns 0
T5FDC 000:723.468 JLINK_WriteReg(R4, 0x00000000)
T5FDC 000:723.484 - 0.015ms returns 0
T5FDC 000:723.501 JLINK_WriteReg(R5, 0x00000000)
T5FDC 000:723.517 - 0.016ms returns 0
T5FDC 000:723.534 JLINK_WriteReg(R6, 0x00000000)
T5FDC 000:723.550 - 0.015ms returns 0
T5FDC 000:723.568 JLINK_WriteReg(R7, 0x00000000)
T5FDC 000:723.583 - 0.015ms returns 0
T5FDC 000:723.600 JLINK_WriteReg(R8, 0x00000000)
T5FDC 000:723.617 - 0.016ms returns 0
T5FDC 000:723.634 JLINK_WriteReg(R9, 0x200005B4)
T5FDC 000:723.650 - 0.015ms returns 0
T5FDC 000:723.672 JLINK_WriteReg(R10, 0x00000000)
T5FDC 000:723.690 - 0.018ms returns 0
T5FDC 000:723.707 JLINK_WriteReg(R11, 0x00000000)
T5FDC 000:723.723 - 0.016ms returns 0
T5FDC 000:723.742 JLINK_WriteReg(R12, 0x00000000)
T5FDC 000:723.758 - 0.016ms returns 0
T5FDC 000:723.775 JLINK_WriteReg(R13 (SP), 0x20004000)
T5FDC 000:723.792 - 0.017ms returns 0
T5FDC 000:723.809 JLINK_WriteReg(R14, 0x20000001)
T5FDC 000:723.826 - 0.016ms returns 0
T5FDC 000:723.845 JLINK_WriteReg(R15 (PC), 0x20000288)
T5FDC 000:723.862 - 0.017ms returns 0
T5FDC 000:723.880 JLINK_WriteReg(XPSR, 0x01000000)
T5FDC 000:723.897 - 0.017ms returns 0
T5FDC 000:723.916 JLINK_WriteReg(MSP, 0x20004000)
T5FDC 000:723.933 - 0.017ms returns 0
T5FDC 000:723.951 JLINK_WriteReg(PSP, 0x20004000)
T5FDC 000:723.968 - 0.016ms returns 0
T5FDC 000:723.987 JLINK_WriteReg(CFBP, 0x00000000)
T5FDC 000:724.004 - 0.017ms returns 0
T5FDC 000:724.024 JLINK_SetBPEx(Addr = 0x20000000, Type = 0xFFFFFFF2)
T5FDC 000:724.044 - 0.020ms returns 0x00000006
T5FDC 000:724.062 JLINK_Go()
T5FDC 000:724.103   CPU_ReadMem(4 bytes @ 0xE0001000)
T5FDC 000:727.984 - 3.920ms
T5FDC 000:728.061 JLINK_IsHalted()
T5FDC 000:731.431   CPU_ReadMem(2 bytes @ 0x20000000)
T5FDC 000:732.098 - 4.035ms returns TRUE
T5FDC 000:732.156 JLINK_ReadReg(R15 (PC))
T5FDC 000:732.179 - 0.022ms returns 0x20000000
T5FDC 000:732.196 JLINK_ClrBPEx(BPHandle = 0x00000006)
T5FDC 000:732.212 - 0.016ms returns 0x00
T5FDC 000:732.229 JLINK_ReadReg(R0)
T5FDC 000:732.244 - 0.015ms returns 0x00000001
T5FDC 000:732.267 JLINK_HasError()
T5FDC 000:732.290 JLINK_WriteReg(R0, 0x00002000)
T5FDC 000:732.306 - 0.016ms returns 0
T5FDC 000:732.322 JLINK_WriteReg(R1, 0x00001000)
T5FDC 000:732.339 - 0.016ms returns 0
T5FDC 000:732.366 JLINK_WriteReg(R2, 0x000000FF)
T5FDC 000:732.384 - 0.017ms returns 0
T5FDC 000:732.404 JLINK_WriteReg(R3, 0x00000000)
T5FDC 000:732.423 - 0.019ms returns 0
T5FDC 000:732.443 JLINK_WriteReg(R4, 0x00000000)
T5FDC 000:732.462 - 0.019ms returns 0
T5FDC 000:732.483 JLINK_WriteReg(R5, 0x00000000)
T5FDC 000:732.503 - 0.019ms returns 0
T5FDC 000:732.523 JLINK_WriteReg(R6, 0x00000000)
T5FDC 000:732.543 - 0.019ms returns 0
T5FDC 000:732.562 JLINK_WriteReg(R7, 0x00000000)
T5FDC 000:732.584 - 0.022ms returns 0
T5FDC 000:732.605 JLINK_WriteReg(R8, 0x00000000)
T5FDC 000:732.624 - 0.018ms returns 0
T5FDC 000:732.652 JLINK_WriteReg(R9, 0x200005B4)
T5FDC 000:732.673 - 0.020ms returns 0
T5FDC 000:732.695 JLINK_WriteReg(R10, 0x00000000)
T5FDC 000:732.715 - 0.020ms returns 0
T5FDC 000:732.736 JLINK_WriteReg(R11, 0x00000000)
T5FDC 000:732.757 - 0.020ms returns 0
T5FDC 000:732.778 JLINK_WriteReg(R12, 0x00000000)
T5FDC 000:732.798 - 0.020ms returns 0
T5FDC 000:732.820 JLINK_WriteReg(R13 (SP), 0x20004000)
T5FDC 000:732.840 - 0.020ms returns 0
T5FDC 000:732.863 JLINK_WriteReg(R14, 0x20000001)
T5FDC 000:732.884 - 0.021ms returns 0
T5FDC 000:732.907 JLINK_WriteReg(R15 (PC), 0x200000D4)
T5FDC 000:732.937 - 0.030ms returns 0
T5FDC 000:732.966 JLINK_WriteReg(XPSR, 0x01000000)
T5FDC 000:732.987 - 0.021ms returns 0
T5FDC 000:733.013 JLINK_WriteReg(MSP, 0x20004000)
T5FDC 000:733.043 - 0.029ms returns 0
T5FDC 000:733.087 JLINK_WriteReg(PSP, 0x20004000)
T5FDC 000:733.107 - 0.019ms returns 0
T5FDC 000:733.130 JLINK_WriteReg(CFBP, 0x00000000)
T5FDC 000:733.145 - 0.015ms returns 0
T5FDC 000:733.163 JLINK_SetBPEx(Addr = 0x20000000, Type = 0xFFFFFFF2)
T5FDC 000:733.179 - 0.017ms returns 0x00000007
T5FDC 000:733.196 JLINK_Go()
T5FDC 000:733.227   CPU_ReadMem(4 bytes @ 0xE0001000)
T5FDC 000:737.321 - 4.122ms
T5FDC 000:737.425 JLINK_IsHalted()
T5FDC 000:737.991 - 0.564ms returns FALSE
T5FDC 000:738.059 JLINK_HasError()
T5FDC 000:739.362 JLINK_IsHalted()
T5FDC 000:743.307   CPU_ReadMem(2 bytes @ 0x20000000)
T5FDC 000:744.018 - 4.654ms returns TRUE
T5FDC 000:744.094 JLINK_ReadReg(R15 (PC))
T5FDC 000:744.124 - 0.029ms returns 0x20000000
T5FDC 000:744.145 JLINK_ClrBPEx(BPHandle = 0x00000007)
T5FDC 000:744.165 - 0.020ms returns 0x00
T5FDC 000:744.193 JLINK_ReadReg(R0)
T5FDC 000:744.212 - 0.019ms returns 0x00000000
T5FDC 000:745.341 JLINK_HasError()
T5FDC 000:745.384 JLINK_WriteReg(R0, 0x00003000)
T5FDC 000:745.408 - 0.024ms returns 0
T5FDC 000:745.427 JLINK_WriteReg(R1, 0x00001000)
T5FDC 000:745.445 - 0.017ms returns 0
T5FDC 000:745.464 JLINK_WriteReg(R2, 0x000000FF)
T5FDC 000:745.481 - 0.017ms returns 0
T5FDC 000:745.499 JLINK_WriteReg(R3, 0x00000000)
T5FDC 000:745.516 - 0.017ms returns 0
T5FDC 000:745.535 JLINK_WriteReg(R4, 0x00000000)
T5FDC 000:745.552 - 0.016ms returns 0
T5FDC 000:745.570 JLINK_WriteReg(R5, 0x00000000)
T5FDC 000:745.587 - 0.016ms returns 0
T5FDC 000:745.606 JLINK_WriteReg(R6, 0x00000000)
T5FDC 000:745.623 - 0.017ms returns 0
T5FDC 000:745.641 JLINK_WriteReg(R7, 0x00000000)
T5FDC 000:745.658 - 0.016ms returns 0
T5FDC 000:745.676 JLINK_WriteReg(R8, 0x00000000)
T5FDC 000:745.693 - 0.017ms returns 0
T5FDC 000:745.711 JLINK_WriteReg(R9, 0x200005B4)
T5FDC 000:745.728 - 0.016ms returns 0
T5FDC 000:745.746 JLINK_WriteReg(R10, 0x00000000)
T5FDC 000:745.763 - 0.017ms returns 0
T5FDC 000:745.782 JLINK_WriteReg(R11, 0x00000000)
T5FDC 000:745.800 - 0.018ms returns 0
T5FDC 000:745.818 JLINK_WriteReg(R12, 0x00000000)
T5FDC 000:745.835 - 0.017ms returns 0
T5FDC 000:745.854 JLINK_WriteReg(R13 (SP), 0x20004000)
T5FDC 000:745.870 - 0.016ms returns 0
T5FDC 000:745.887 JLINK_WriteReg(R14, 0x20000001)
T5FDC 000:745.903 - 0.015ms returns 0
T5FDC 000:745.920 JLINK_WriteReg(R15 (PC), 0x20000288)
T5FDC 000:745.936 - 0.015ms returns 0
T5FDC 000:745.953 JLINK_WriteReg(XPSR, 0x01000000)
T5FDC 000:746.001 - 0.047ms returns 0
T5FDC 000:746.023 JLINK_WriteReg(MSP, 0x20004000)
T5FDC 000:746.045 - 0.022ms returns 0
T5FDC 000:746.065 JLINK_WriteReg(PSP, 0x20004000)
T5FDC 000:746.082 - 0.016ms returns 0
T5FDC 000:746.099 JLINK_WriteReg(CFBP, 0x00000000)
T5FDC 000:746.115 - 0.016ms returns 0
T5FDC 000:746.134 JLINK_SetBPEx(Addr = 0x20000000, Type = 0xFFFFFFF2)
T5FDC 000:746.152 - 0.019ms returns 0x00000008
T5FDC 000:746.170 JLINK_Go()
T5FDC 000:746.203   CPU_ReadMem(4 bytes @ 0xE0001000)
T5FDC 000:749.983 - 3.810ms
T5FDC 000:750.094 JLINK_IsHalted()
T5FDC 000:753.460   CPU_ReadMem(2 bytes @ 0x20000000)
T5FDC 000:753.948 - 3.853ms returns TRUE
T5FDC 000:754.033 JLINK_ReadReg(R15 (PC))
T5FDC 000:754.066 - 0.032ms returns 0x20000000
T5FDC 000:754.173 JLINK_ClrBPEx(BPHandle = 0x00000008)
T5FDC 000:754.240 - 0.067ms returns 0x00
T5FDC 000:754.267 JLINK_ReadReg(R0)
T5FDC 000:754.289 - 0.022ms returns 0x00000001
T5FDC 000:754.308 JLINK_HasError()
T5FDC 000:754.326 JLINK_WriteReg(R0, 0x00003000)
T5FDC 000:754.344 - 0.017ms returns 0
T5FDC 000:754.361 JLINK_WriteReg(R1, 0x00001000)
T5FDC 000:754.376 - 0.015ms returns 0
T5FDC 000:754.392 JLINK_WriteReg(R2, 0x000000FF)
T5FDC 000:754.408 - 0.016ms returns 0
T5FDC 000:754.426 JLINK_WriteReg(R3, 0x00000000)
T5FDC 000:754.441 - 0.014ms returns 0
T5FDC 000:754.463 JLINK_WriteReg(R4, 0x00000000)
T5FDC 000:754.572 - 0.109ms returns 0
T5FDC 000:754.596 JLINK_WriteReg(R5, 0x00000000)
T5FDC 000:754.613 - 0.016ms returns 0
T5FDC 000:754.629 JLINK_WriteReg(R6, 0x00000000)
T5FDC 000:754.643 - 0.014ms returns 0
T5FDC 000:754.659 JLINK_WriteReg(R7, 0x00000000)
T5FDC 000:754.674 - 0.014ms returns 0
T5FDC 000:754.691 JLINK_WriteReg(R8, 0x00000000)
T5FDC 000:754.829 - 0.138ms returns 0
T5FDC 000:754.850 JLINK_WriteReg(R9, 0x200005B4)
T5FDC 000:754.865 - 0.015ms returns 0
T5FDC 000:754.882 JLINK_WriteReg(R10, 0x00000000)
T5FDC 000:754.898 - 0.016ms returns 0
T5FDC 000:754.916 JLINK_WriteReg(R11, 0x00000000)
T5FDC 000:754.931 - 0.015ms returns 0
T5FDC 000:754.948 JLINK_WriteReg(R12, 0x00000000)
T5FDC 000:754.964 - 0.015ms returns 0
T5FDC 000:754.982 JLINK_WriteReg(R13 (SP), 0x20004000)
T5FDC 000:754.998 - 0.017ms returns 0
T5FDC 000:755.015 JLINK_WriteReg(R14, 0x20000001)
T5FDC 000:755.031 - 0.016ms returns 0
T5FDC 000:755.048 JLINK_WriteReg(R15 (PC), 0x200000D4)
T5FDC 000:755.065 - 0.016ms returns 0
T5FDC 000:755.082 JLINK_WriteReg(XPSR, 0x01000000)
T5FDC 000:755.098 - 0.016ms returns 0
T5FDC 000:755.115 JLINK_WriteReg(MSP, 0x20004000)
T5FDC 000:755.131 - 0.015ms returns 0
T5FDC 000:755.148 JLINK_WriteReg(PSP, 0x20004000)
T5FDC 000:755.164 - 0.015ms returns 0
T5FDC 000:755.181 JLINK_WriteReg(CFBP, 0x00000000)
T5FDC 000:755.196 - 0.015ms returns 0
T5FDC 000:755.215 JLINK_SetBPEx(Addr = 0x20000000, Type = 0xFFFFFFF2)
T5FDC 000:755.233 - 0.018ms returns 0x00000009
T5FDC 000:755.250 JLINK_Go()
T5FDC 000:755.286   CPU_ReadMem(4 bytes @ 0xE0001000)
T5FDC 000:759.384 - 4.132ms
T5FDC 000:759.471 JLINK_IsHalted()
T5FDC 000:760.156 - 0.683ms returns FALSE
T5FDC 000:760.235 JLINK_HasError()
T5FDC 000:762.471 JLINK_IsHalted()
T5FDC 000:766.424   CPU_ReadMem(2 bytes @ 0x20000000)
T5FDC 000:767.171 - 4.698ms returns TRUE
T5FDC 000:767.269 JLINK_ReadReg(R15 (PC))
T5FDC 000:767.304 - 0.034ms returns 0x20000000
T5FDC 000:767.330 JLINK_ClrBPEx(BPHandle = 0x00000009)
T5FDC 000:767.355 - 0.024ms returns 0x00
T5FDC 000:767.380 JLINK_ReadReg(R0)
T5FDC 000:767.402 - 0.022ms returns 0x00000000
T5FDC 000:769.120 JLINK_HasError()
T5FDC 000:769.192 JLINK_WriteReg(R0, 0x00004000)
T5FDC 000:769.220 - 0.028ms returns 0
T5FDC 000:769.241 JLINK_WriteReg(R1, 0x00001000)
T5FDC 000:769.262 - 0.020ms returns 0
T5FDC 000:769.282 JLINK_WriteReg(R2, 0x000000FF)
T5FDC 000:769.301 - 0.018ms returns 0
T5FDC 000:769.321 JLINK_WriteReg(R3, 0x00000000)
T5FDC 000:769.340 - 0.018ms returns 0
T5FDC 000:769.360 JLINK_WriteReg(R4, 0x00000000)
T5FDC 000:769.379 - 0.019ms returns 0
T5FDC 000:769.398 JLINK_WriteReg(R5, 0x00000000)
T5FDC 000:769.417 - 0.018ms returns 0
T5FDC 000:769.437 JLINK_WriteReg(R6, 0x00000000)
T5FDC 000:769.455 - 0.018ms returns 0
T5FDC 000:769.475 JLINK_WriteReg(R7, 0x00000000)
T5FDC 000:769.493 - 0.018ms returns 0
T5FDC 000:769.513 JLINK_WriteReg(R8, 0x00000000)
T5FDC 000:769.541 - 0.028ms returns 0
T5FDC 000:769.561 JLINK_WriteReg(R9, 0x200005B4)
T5FDC 000:769.579 - 0.018ms returns 0
T5FDC 000:769.599 JLINK_WriteReg(R10, 0x00000000)
T5FDC 000:769.618 - 0.019ms returns 0
T5FDC 000:769.638 JLINK_WriteReg(R11, 0x00000000)
T5FDC 000:769.656 - 0.018ms returns 0
T5FDC 000:769.676 JLINK_WriteReg(R12, 0x00000000)
T5FDC 000:769.694 - 0.018ms returns 0
T5FDC 000:769.714 JLINK_WriteReg(R13 (SP), 0x20004000)
T5FDC 000:769.733 - 0.018ms returns 0
T5FDC 000:769.751 JLINK_WriteReg(R14, 0x20000001)
T5FDC 000:769.768 - 0.016ms returns 0
T5FDC 000:769.786 JLINK_WriteReg(R15 (PC), 0x20000288)
T5FDC 000:769.803 - 0.017ms returns 0
T5FDC 000:769.822 JLINK_WriteReg(XPSR, 0x01000000)
T5FDC 000:769.839 - 0.017ms returns 0
T5FDC 000:769.858 JLINK_WriteReg(MSP, 0x20004000)
T5FDC 000:769.875 - 0.016ms returns 0
T5FDC 000:769.893 JLINK_WriteReg(PSP, 0x20004000)
T5FDC 000:769.910 - 0.016ms returns 0
T5FDC 000:769.928 JLINK_WriteReg(CFBP, 0x00000000)
T5FDC 000:769.946 - 0.017ms returns 0
T5FDC 000:769.966 JLINK_SetBPEx(Addr = 0x20000000, Type = 0xFFFFFFF2)
T5FDC 000:769.985 - 0.020ms returns 0x0000000A
T5FDC 000:770.016 JLINK_Go()
T5FDC 000:770.059   CPU_ReadMem(4 bytes @ 0xE0001000)
T5FDC 000:774.100 - 4.082ms
T5FDC 000:774.187 JLINK_IsHalted()
T5FDC 000:777.757   CPU_ReadMem(2 bytes @ 0x20000000)
T5FDC 000:778.395 - 4.206ms returns TRUE
T5FDC 000:778.476 JLINK_ReadReg(R15 (PC))
T5FDC 000:778.519 - 0.042ms returns 0x20000000
T5FDC 000:778.565 JLINK_ClrBPEx(BPHandle = 0x0000000A)
T5FDC 000:778.593 - 0.028ms returns 0x00
T5FDC 000:778.619 JLINK_ReadReg(R0)
T5FDC 000:778.643 - 0.024ms returns 0x00000001
T5FDC 000:778.670 JLINK_HasError()
T5FDC 000:778.698 JLINK_WriteReg(R0, 0x00004000)
T5FDC 000:778.723 - 0.025ms returns 0
T5FDC 000:778.749 JLINK_WriteReg(R1, 0x00001000)
T5FDC 000:778.773 - 0.023ms returns 0
T5FDC 000:778.797 JLINK_WriteReg(R2, 0x000000FF)
T5FDC 000:778.819 - 0.022ms returns 0
T5FDC 000:778.843 JLINK_WriteReg(R3, 0x00000000)
T5FDC 000:778.865 - 0.021ms returns 0
T5FDC 000:778.888 JLINK_WriteReg(R4, 0x00000000)
T5FDC 000:778.910 - 0.022ms returns 0
T5FDC 000:778.937 JLINK_WriteReg(R5, 0x00000000)
T5FDC 000:778.957 - 0.020ms returns 0
T5FDC 000:778.984 JLINK_WriteReg(R6, 0x00000000)
T5FDC 000:779.005 - 0.020ms returns 0
T5FDC 000:779.026 JLINK_WriteReg(R7, 0x00000000)
T5FDC 000:779.047 - 0.020ms returns 0
T5FDC 000:779.069 JLINK_WriteReg(R8, 0x00000000)
T5FDC 000:779.089 - 0.020ms returns 0
T5FDC 000:779.111 JLINK_WriteReg(R9, 0x200005B4)
T5FDC 000:779.131 - 0.020ms returns 0
T5FDC 000:779.153 JLINK_WriteReg(R10, 0x00000000)
T5FDC 000:779.175 - 0.022ms returns 0
T5FDC 000:779.199 JLINK_WriteReg(R11, 0x00000000)
T5FDC 000:779.223 - 0.023ms returns 0
T5FDC 000:779.248 JLINK_WriteReg(R12, 0x00000000)
T5FDC 000:779.271 - 0.023ms returns 0
T5FDC 000:779.295 JLINK_WriteReg(R13 (SP), 0x20004000)
T5FDC 000:779.333 - 0.038ms returns 0
T5FDC 000:779.356 JLINK_WriteReg(R14, 0x20000001)
T5FDC 000:779.379 - 0.022ms returns 0
T5FDC 000:779.402 JLINK_WriteReg(R15 (PC), 0x200000D4)
T5FDC 000:779.424 - 0.021ms returns 0
T5FDC 000:779.650 JLINK_WriteReg(XPSR, 0x01000000)
T5FDC 000:779.722 - 0.072ms returns 0
T5FDC 000:779.745 JLINK_WriteReg(MSP, 0x20004000)
T5FDC 000:779.762 - 0.017ms returns 0
T5FDC 000:779.779 JLINK_WriteReg(PSP, 0x20004000)
T5FDC 000:779.795 - 0.016ms returns 0
T5FDC 000:779.812 JLINK_WriteReg(CFBP, 0x00000000)
T5FDC 000:779.828 - 0.015ms returns 0
T5FDC 000:779.847 JLINK_SetBPEx(Addr = 0x20000000, Type = 0xFFFFFFF2)
T5FDC 000:779.869 - 0.021ms returns 0x0000000B
T5FDC 000:779.892 JLINK_Go()
T5FDC 000:779.927   CPU_ReadMem(4 bytes @ 0xE0001000)
T5FDC 000:783.827 - 3.932ms
T5FDC 000:783.913 JLINK_IsHalted()
T5FDC 000:784.372 - 0.457ms returns FALSE
T5FDC 000:784.421 JLINK_HasError()
T5FDC 000:790.648 JLINK_IsHalted()
T5FDC 000:794.395   CPU_ReadMem(2 bytes @ 0x20000000)
T5FDC 000:795.099 - 4.449ms returns TRUE
T5FDC 000:795.175 JLINK_ReadReg(R15 (PC))
T5FDC 000:795.206 - 0.030ms returns 0x20000000
T5FDC 000:795.225 JLINK_ClrBPEx(BPHandle = 0x0000000B)
T5FDC 000:795.244 - 0.018ms returns 0x00
T5FDC 000:795.264 JLINK_ReadReg(R0)
T5FDC 000:795.281 - 0.017ms returns 0x00000000
T5FDC 000:796.168 JLINK_HasError()
T5FDC 000:796.235 JLINK_WriteReg(R0, 0x00000001)
T5FDC 000:796.263 - 0.028ms returns 0
T5FDC 000:796.284 JLINK_WriteReg(R1, 0x00001000)
T5FDC 000:796.303 - 0.019ms returns 0
T5FDC 000:796.323 JLINK_WriteReg(R2, 0x000000FF)
T5FDC 000:796.342 - 0.018ms returns 0
T5FDC 000:796.362 JLINK_WriteReg(R3, 0x00000000)
T5FDC 000:796.380 - 0.018ms returns 0
T5FDC 000:796.400 JLINK_WriteReg(R4, 0x00000000)
T5FDC 000:796.419 - 0.018ms returns 0
T5FDC 000:796.438 JLINK_WriteReg(R5, 0x00000000)
T5FDC 000:796.457 - 0.018ms returns 0
T5FDC 000:796.477 JLINK_WriteReg(R6, 0x00000000)
T5FDC 000:796.495 - 0.018ms returns 0
T5FDC 000:796.515 JLINK_WriteReg(R7, 0x00000000)
T5FDC 000:796.533 - 0.018ms returns 0
T5FDC 000:796.553 JLINK_WriteReg(R8, 0x00000000)
T5FDC 000:796.578 - 0.025ms returns 0
T5FDC 000:796.598 JLINK_WriteReg(R9, 0x200005B4)
T5FDC 000:796.617 - 0.019ms returns 0
T5FDC 000:796.637 JLINK_WriteReg(R10, 0x00000000)
T5FDC 000:796.671 - 0.033ms returns 0
T5FDC 000:796.699 JLINK_WriteReg(R11, 0x00000000)
T5FDC 000:796.717 - 0.018ms returns 0
T5FDC 000:796.737 JLINK_WriteReg(R12, 0x00000000)
T5FDC 000:796.756 - 0.019ms returns 0
T5FDC 000:796.777 JLINK_WriteReg(R13 (SP), 0x20004000)
T5FDC 000:796.796 - 0.020ms returns 0
T5FDC 000:796.817 JLINK_WriteReg(R14, 0x20000001)
T5FDC 000:796.835 - 0.018ms returns 0
T5FDC 000:796.855 JLINK_WriteReg(R15 (PC), 0x20000060)
T5FDC 000:796.874 - 0.019ms returns 0
T5FDC 000:796.894 JLINK_WriteReg(XPSR, 0x01000000)
T5FDC 000:796.912 - 0.018ms returns 0
T5FDC 000:796.932 JLINK_WriteReg(MSP, 0x20004000)
T5FDC 000:796.951 - 0.018ms returns 0
T5FDC 000:796.970 JLINK_WriteReg(PSP, 0x20004000)
T5FDC 000:796.989 - 0.018ms returns 0
T5FDC 000:797.009 JLINK_WriteReg(CFBP, 0x00000000)
T5FDC 000:797.028 - 0.019ms returns 0
T5FDC 000:797.052 JLINK_SetBPEx(Addr = 0x20000000, Type = 0xFFFFFFF2)
T5FDC 000:797.075 - 0.023ms returns 0x0000000C
T5FDC 000:797.110 JLINK_Go()
T5FDC 000:797.153   CPU_ReadMem(4 bytes @ 0xE0001000)
T5FDC 000:801.017 - 3.903ms
T5FDC 000:801.148 JLINK_IsHalted()
T5FDC 000:804.429   CPU_ReadMem(2 bytes @ 0x20000000)
T5FDC 000:805.012 - 3.862ms returns TRUE
T5FDC 000:805.162 JLINK_ReadReg(R15 (PC))
T5FDC 000:805.194 - 0.032ms returns 0x20000000
T5FDC 000:805.214 JLINK_ClrBPEx(BPHandle = 0x0000000C)
T5FDC 000:805.232 - 0.018ms returns 0x00
T5FDC 000:805.251 JLINK_ReadReg(R0)
T5FDC 000:805.269 - 0.017ms returns 0x00000000
T5FDC 000:882.676 JLINK_WriteMem(0x20000000, 0x5B8 Bytes, ...)
T5FDC 000:882.718   Data:  00 BE 0A E0 0D 78 2D 06 68 40 08 24 40 00 00 D3 ...
T5FDC 000:882.765   CPU_WriteMem(1464 bytes @ 0x20000000)
T5FDC 000:891.014 - 8.335ms returns 0x5B8
T5FDC 000:891.242 JLINK_HasError()
T5FDC 000:891.272 JLINK_WriteReg(R0, 0x00000000)
T5FDC 000:891.302 - 0.030ms returns 0
T5FDC 000:891.323 JLINK_WriteReg(R1, 0x00B71B00)
T5FDC 000:891.342 - 0.019ms returns 0
T5FDC 000:891.362 JLINK_WriteReg(R2, 0x00000002)
T5FDC 000:891.381 - 0.019ms returns 0
T5FDC 000:891.401 JLINK_WriteReg(R3, 0x00000000)
T5FDC 000:891.419 - 0.018ms returns 0
T5FDC 000:891.439 JLINK_WriteReg(R4, 0x00000000)
T5FDC 000:891.457 - 0.018ms returns 0
T5FDC 000:891.478 JLINK_WriteReg(R5, 0x00000000)
T5FDC 000:891.496 - 0.018ms returns 0
T5FDC 000:891.515 JLINK_WriteReg(R6, 0x00000000)
T5FDC 000:891.536 - 0.020ms returns 0
T5FDC 000:891.556 JLINK_WriteReg(R7, 0x00000000)
T5FDC 000:891.574 - 0.018ms returns 0
T5FDC 000:891.595 JLINK_WriteReg(R8, 0x00000000)
T5FDC 000:891.620 - 0.024ms returns 0
T5FDC 000:891.640 JLINK_WriteReg(R9, 0x200005B4)
T5FDC 000:891.658 - 0.018ms returns 0
T5FDC 000:891.678 JLINK_WriteReg(R10, 0x00000000)
T5FDC 000:891.697 - 0.019ms returns 0
T5FDC 000:891.717 JLINK_WriteReg(R11, 0x00000000)
T5FDC 000:891.735 - 0.018ms returns 0
T5FDC 000:891.755 JLINK_WriteReg(R12, 0x00000000)
T5FDC 000:891.774 - 0.018ms returns 0
T5FDC 000:891.794 JLINK_WriteReg(R13 (SP), 0x20004000)
T5FDC 000:891.814 - 0.020ms returns 0
T5FDC 000:891.834 JLINK_WriteReg(R14, 0x20000001)
T5FDC 000:891.853 - 0.019ms returns 0
T5FDC 000:891.873 JLINK_WriteReg(R15 (PC), 0x20000020)
T5FDC 000:891.892 - 0.018ms returns 0
T5FDC 000:891.912 JLINK_WriteReg(XPSR, 0x01000000)
T5FDC 000:891.930 - 0.018ms returns 0
T5FDC 000:891.961 JLINK_WriteReg(MSP, 0x20004000)
T5FDC 000:891.979 - 0.018ms returns 0
T5FDC 000:891.999 JLINK_WriteReg(PSP, 0x20004000)
T5FDC 000:892.018 - 0.018ms returns 0
T5FDC 000:892.037 JLINK_WriteReg(CFBP, 0x00000000)
T5FDC 000:892.056 - 0.018ms returns 0
T5FDC 000:892.077 JLINK_SetBPEx(Addr = 0x20000000, Type = 0xFFFFFFF2)
T5FDC 000:892.111   CPU_ReadMem(2 bytes @ 0x20000000)
T5FDC 000:892.787 - 0.702ms returns 0x0000000D
T5FDC 000:892.903 JLINK_Go()
T5FDC 000:892.939   CPU_WriteMem(2 bytes @ 0x20000000)
T5FDC 000:893.523   CPU_ReadMem(4 bytes @ 0xE0001000)
T5FDC 000:897.175 - 4.271ms
T5FDC 000:897.244 JLINK_IsHalted()
T5FDC 000:900.743   CPU_ReadMem(2 bytes @ 0x20000000)
T5FDC 000:901.435 - 4.189ms returns TRUE
T5FDC 000:901.498 JLINK_ReadReg(R15 (PC))
T5FDC 000:901.540 - 0.042ms returns 0x20000000
T5FDC 000:901.559 JLINK_ClrBPEx(BPHandle = 0x0000000D)
T5FDC 000:901.577 - 0.017ms returns 0x00
T5FDC 000:901.595 JLINK_ReadReg(R0)
T5FDC 000:901.611 - 0.016ms returns 0x00000000
T5FDC 000:902.454 JLINK_WriteMem(0x200005C8, 0x238 Bytes, ...)
T5FDC 000:902.520   Data:  88 2B 00 20 D5 03 00 00 DD 03 00 00 DF 03 00 00 ...
T5FDC 000:902.568   CPU_WriteMem(568 bytes @ 0x200005C8)
T5FDC 000:906.518 - 4.063ms returns 0x238
T5FDC 000:906.619 JLINK_WriteMem(0x20000800, 0x400 Bytes, ...)
T5FDC 000:906.640   Data:  04 43 00 00 0A 44 4F F0 00 0C 10 F8 01 3B 13 F0 ...
T5FDC 000:906.694   CPU_WriteMem(1024 bytes @ 0x20000800)
T5FDC 000:912.677 - 6.057ms returns 0x400
T5FDC 000:912.781 JLINK_WriteMem(0x20000C00, 0x400 Bytes, ...)
T5FDC 000:912.802   Data:  03 10 11 46 68 46 00 F0 6E F8 0F B0 00 BD 00 00 ...
T5FDC 000:912.857   CPU_WriteMem(1024 bytes @ 0x20000C00)
T5FDC 000:918.824 - 6.040ms returns 0x400
T5FDC 000:918.936 JLINK_WriteMem(0x20001000, 0x400 Bytes, ...)
T5FDC 000:918.959   Data:  BC F1 06 0F 03 D0 0A E0 03 F0 FF 0C F6 E7 B4 F8 ...
T5FDC 000:919.018   CPU_WriteMem(1024 bytes @ 0x20001000)
T5FDC 000:924.826 - 5.886ms returns 0x400
T5FDC 000:924.987 JLINK_WriteMem(0x20001400, 0x1C8 Bytes, ...)
T5FDC 000:925.010   Data:  C3 68 9A 1A 83 88 9A 42 03 D8 00 F0 ED F9 00 20 ...
T5FDC 000:925.128   CPU_WriteMem(456 bytes @ 0x20001400)
T5FDC 000:928.229 - 3.241ms returns 0x1C8
T5FDC 000:928.337 JLINK_HasError()
T5FDC 000:928.364 JLINK_WriteReg(R0, 0x00000000)
T5FDC 000:928.395 - 0.030ms returns 0
T5FDC 000:928.539 JLINK_WriteReg(R1, 0x00001000)
T5FDC 000:928.573 - 0.035ms returns 0
T5FDC 000:928.594 JLINK_WriteReg(R2, 0x200005C8)
T5FDC 000:928.613 - 0.018ms returns 0
T5FDC 000:928.633 JLINK_WriteReg(R3, 0x00000000)
T5FDC 000:928.651 - 0.018ms returns 0
T5FDC 000:928.672 JLINK_WriteReg(R4, 0x00000000)
T5FDC 000:928.690 - 0.018ms returns 0
T5FDC 000:928.710 JLINK_WriteReg(R5, 0x00000000)
T5FDC 000:928.728 - 0.018ms returns 0
T5FDC 000:928.748 JLINK_WriteReg(R6, 0x00000000)
T5FDC 000:928.764 - 0.016ms returns 0
T5FDC 000:928.783 JLINK_WriteReg(R7, 0x00000000)
T5FDC 000:928.800 - 0.017ms returns 0
T5FDC 000:928.819 JLINK_WriteReg(R8, 0x00000000)
T5FDC 000:928.835 - 0.016ms returns 0
T5FDC 000:928.854 JLINK_WriteReg(R9, 0x200005B4)
T5FDC 000:928.871 - 0.016ms returns 0
T5FDC 000:928.889 JLINK_WriteReg(R10, 0x00000000)
T5FDC 000:928.913 - 0.023ms returns 0
T5FDC 000:928.936 JLINK_WriteReg(R11, 0x00000000)
T5FDC 000:928.954 - 0.017ms returns 0
T5FDC 000:928.972 JLINK_WriteReg(R12, 0x00000000)
T5FDC 000:928.989 - 0.017ms returns 0
T5FDC 000:929.008 JLINK_WriteReg(R13 (SP), 0x20004000)
T5FDC 000:929.027 - 0.019ms returns 0
T5FDC 000:929.045 JLINK_WriteReg(R14, 0x20000001)
T5FDC 000:929.062 - 0.017ms returns 0
T5FDC 000:929.081 JLINK_WriteReg(R15 (PC), 0x20000154)
T5FDC 000:929.098 - 0.017ms returns 0
T5FDC 000:929.117 JLINK_WriteReg(XPSR, 0x01000000)
T5FDC 000:929.140 - 0.023ms returns 0
T5FDC 000:929.158 JLINK_WriteReg(MSP, 0x20004000)
T5FDC 000:929.175 - 0.016ms returns 0
T5FDC 000:929.194 JLINK_WriteReg(PSP, 0x20004000)
T5FDC 000:929.210 - 0.017ms returns 0
T5FDC 000:929.229 JLINK_WriteReg(CFBP, 0x00000000)
T5FDC 000:929.246 - 0.017ms returns 0
T5FDC 000:929.266 JLINK_SetBPEx(Addr = 0x20000000, Type = 0xFFFFFFF2)
T5FDC 000:929.286 - 0.020ms returns 0x0000000E
T5FDC 000:929.305 JLINK_Go()
T5FDC 000:929.340   CPU_ReadMem(4 bytes @ 0xE0001000)
T5FDC 000:933.369 - 4.062ms
T5FDC 000:933.484 JLINK_IsHalted()
T5FDC 000:934.111 - 0.624ms returns FALSE
T5FDC 000:934.187 JLINK_HasError()
T5FDC 000:948.563 JLINK_IsHalted()
T5FDC 000:949.176 - 0.610ms returns FALSE
T5FDC 000:949.288 JLINK_HasError()
T5FDC 000:950.597 JLINK_IsHalted()
T5FDC 000:951.075 - 0.476ms returns FALSE
T5FDC 000:951.137 JLINK_HasError()
T5FDC 000:953.161 JLINK_IsHalted()
T5FDC 000:953.817 - 0.654ms returns FALSE
T5FDC 000:953.879 JLINK_HasError()
T5FDC 000:955.338 JLINK_IsHalted()
T5FDC 000:955.834 - 0.494ms returns FALSE
T5FDC 000:955.910 JLINK_HasError()
T5FDC 000:957.886 JLINK_IsHalted()
T5FDC 000:958.708 - 0.821ms returns FALSE
T5FDC 000:958.783 JLINK_HasError()
T5FDC 000:961.149 JLINK_IsHalted()
T5FDC 000:961.852 - 0.700ms returns FALSE
T5FDC 000:961.939 JLINK_HasError()
T5FDC 000:963.293 JLINK_IsHalted()
T5FDC 000:964.142 - 0.846ms returns FALSE
T5FDC 000:964.239 JLINK_HasError()
T5FDC 000:966.425 JLINK_IsHalted()
T5FDC 000:967.000 - 0.572ms returns FALSE
T5FDC 000:967.104 JLINK_HasError()
T5FDC 000:968.488 JLINK_IsHalted()
T5FDC 000:969.272 - 0.782ms returns FALSE
T5FDC 000:969.357 JLINK_HasError()
T5FDC 000:970.707 JLINK_IsHalted()
T5FDC 000:971.239 - 0.529ms returns FALSE
T5FDC 000:971.324 JLINK_HasError()
T5FDC 000:973.414 JLINK_IsHalted()
T5FDC 000:974.203 - 0.786ms returns FALSE
T5FDC 000:974.309 JLINK_HasError()
T5FDC 000:975.725 JLINK_IsHalted()
T5FDC 000:976.491 - 0.764ms returns FALSE
T5FDC 000:976.592 JLINK_HasError()
T5FDC 000:978.183 JLINK_IsHalted()
T5FDC 000:978.855 - 0.669ms returns FALSE
T5FDC 000:978.934 JLINK_HasError()
T5FDC 000:980.425 JLINK_IsHalted()
T5FDC 000:981.234 - 0.807ms returns FALSE
T5FDC 000:981.319 JLINK_HasError()
T5FDC 000:983.306 JLINK_IsHalted()
T5FDC 000:984.032 - 0.724ms returns FALSE
T5FDC 000:984.123 JLINK_HasError()
T5FDC 000:985.507 JLINK_IsHalted()
T5FDC 000:986.223 - 0.714ms returns FALSE
T5FDC 000:986.290 JLINK_HasError()
T5FDC 000:987.794 JLINK_IsHalted()
T5FDC 000:988.270 - 0.475ms returns FALSE
T5FDC 000:988.337 JLINK_HasError()
T5FDC 000:990.299 JLINK_IsHalted()
T5FDC 000:991.040 - 0.739ms returns FALSE
T5FDC 000:991.097 JLINK_HasError()
T5FDC 000:992.579 JLINK_IsHalted()
T5FDC 000:993.352 - 0.771ms returns FALSE
T5FDC 000:993.425 JLINK_HasError()
T5FDC 000:994.826 JLINK_IsHalted()
T5FDC 000:995.597 - 0.768ms returns FALSE
T5FDC 000:995.681 JLINK_HasError()
T5FDC 000:998.049 JLINK_IsHalted()
